
T1BA0 000:067 SEGGER J-Link V6.18c Log File (0001ms, 0037ms total)
T1BA0 000:067 DLL Compiled: Aug 21 2017 16:46:41 (0001ms, 0037ms total)
T1BA0 000:067 Logging started @ 2017-10-24 21:07 (0001ms, 0037ms total)
T1BA0 000:068 JLINK_SetWarnOutHandler(...) (0000ms, 0037ms total)
T1BA0 000:068 JLINK_OpenEx(...)
Firmware: J-Link ARM V8 compiled Nov 28 2014 13:44:46
Hardware: V8.00
S/N: 268003028
OEM: SEGGER-EDU
Feature(s): FlashBP, GDB
TELNET listener socket opened on port 19021WEBSRV 
Webserver running on local port 19080  returns O.K. (0020ms, 0057ms total)
T1BA0 000:088 JLINK_SetErrorOutHandler(...) (0000ms, 0057ms total)
T1BA0 000:088 JLINK_ExecCommand("ProjectFile = "D:\Projekty\Hodiny\program\JLinkSettings.ini"", ...). C:\Program Files (x86)\SEGGER\JLink_V618c\JLinkDevices.xml evaluated successfully.  returns 0x00 (0207ms, 0264ms total)
T1BA0 000:299 JLINK_ExecCommand("Device = LPC812M101JD20", ...). Device "LPC812M101" selected.  returns 0x00 (0006ms, 0270ms total)
T1BA0 000:305 JLINK_ExecCommand("DisableConnectionTimeout", ...).   returns 0x01 (0000ms, 0270ms total)
T1BA0 000:305 JLINK_GetHardwareVersion()  returns 0x13880 (0001ms, 0271ms total)
T1BA0 000:306 JLINK_GetDLLVersion()  returns 61803 (0000ms, 0271ms total)
T1BA0 000:316 JLINK_GetDLLVersion()  returns 61803 (0000ms, 0271ms total)
T1BA0 000:316 JLINK_GetCompileDateTime() (0000ms, 0271ms total)
T1BA0 000:321 JLINK_GetFirmwareString(...) (0000ms, 0271ms total)
T1BA0 000:325 JLINK_GetHardwareVersion()  returns 0x13880 (0000ms, 0271ms total)
T1BA0 000:346 JLINK_TIF_Select(JLINKARM_TIF_SWD)  returns 0x00 (0003ms, 0274ms total)
T1BA0 000:349 JLINK_SetSpeed(5000) (0000ms, 0274ms total)
T1BA0 000:349 JLINK_GetId() >0x10B TIF>Found SW-DP with ID 0x0BC11477 >0x0D TIF> >0x28 TIF> >0x0D TIF> >0x28 TIF> >0x0D TIF> >0x28 TIF> >0x0D TIF> >0x28 TIF> >0x0D TIF> >0x21 TIF> >0x0D TIF> >0x28 TIF>Scanning AP map to find all available APs >0x0D TIF> >0x28 TIF> >0x0D TIF> >0x21 TIF> >0x0D TIF> >0x21 TIF> >0x0D TIF> >0x28 TIF> >0x0D TIF> >0x21 TIF> >0x0D TIF> >0x21 TIF>AP[1]: Stopped AP scan as end of AP map has been reachedAP[0]: AHB-AP (IDR: 0x04770031)Iterating through AP map to find AHB-AP to use
 >0x42 TIF> >0x28 TIF> >0x0D TIF> >0x21 TIF> >0x0D TIF> >0x21 TIF> >0x42 TIF> >0x28 TIF> >0x0D TIF> >0x28 TIF> >0x0D TIF> >0x28 TIF> >0x0D TIF> >0x21 TIF> >0x0D TIF> >0x21 TIF>AP[0]: Core foundAP[0]: AHB-AP ROM base: 0xE00FF000 >0x0D TIF> >0x28 TIF> >0x0D TIF> >0x28 TIF> >0x0D TIF> >0x28 TIF> >0x0D TIF> >0x21 TIF> >0x0D TIF> >0x21 TIF>CPUID register: 0x410CC600. Implementer code: 0x41 (ARM)Found Cortex-M0 r0p0, Little endian. -- CPU_ReadMem(4 bytes @ 0xE000EDF0) -- CPU_WriteMem(4 bytes @ 0xE000EDF0)
 -- CPU_ReadMem(4 bytes @ 0xE0002000)FPUnit: 4 code (BP) slots and 0 literal slots -- CPU_ReadMem(4 bytes @ 0xE000EDFC) -- CPU_WriteMem(4 bytes @ 0xE000EDFC) -- CPU_ReadMem(4 bytes @ 0xE0001000) -- CPU_WriteMem(4 bytes @ 0xE0001000)CoreSight components:ROMTbl[0] @ E00FF000 -- CPU_ReadMem(16 bytes @ 0xE00FF000) -- CPU_ReadMem(16 bytes @ 0xE000EFF0) -- CPU_ReadMem(16 bytes @ 0xE000EFE0)ROMTbl[0][0]: E000E000, CID: B105E00D, PID: 000BB008 SCS -- CPU_ReadMem(16 bytes @ 0xE0001FF0)
 -- CPU_ReadMem(16 bytes @ 0xE0001FE0)ROMTbl[0][1]: E0001000, CID: B105E00D, PID: 000BB00A DWT -- CPU_ReadMem(16 bytes @ 0xE0002FF0) -- CPU_ReadMem(16 bytes @ 0xE0002FE0)ROMTbl[0][2]: E0002000, CID: B105E00D, PID: 000BB00B FPB >0x0D TIF> >0x21 TIF>  returns 0x0BC11477 (0251ms, 0525ms total)
T1BA0 000:600 JLINK_GetDLLVersion()  returns 61803 (0000ms, 0525ms total)
T1BA0 000:600 JLINK_CORE_GetFound()  returns 0x60000FF (0000ms, 0525ms total)
T1BA0 000:600 JLINK_GetDebugInfo(0x100 = JLINKARM_ROM_TABLE_ADDR_INDEX) -- Value=0xE00FF000  returns 0x00 (0000ms, 0525ms total)
T1BA0 000:606 JLINK_GetDebugInfo(0x100 = JLINKARM_ROM_TABLE_ADDR_INDEX) -- Value=0xE00FF000  returns 0x00 (0000ms, 0525ms total)
T1BA0 000:606 JLINK_GetDebugInfo(0x101 = JLINKARM_DEBUG_INFO_ETM_ADDR_INDEX) -- Value=0x00000000  returns 0x00 (0000ms, 0525ms total)
T1BA0 000:606 JLINK_ReadMem (0xE0041FF0, 0x0010 Bytes, ...) -- CPU_ReadMem(16 bytes @ 0xE0041FF0) - Data: 00 00 00 00 00 00 00 00 00 00 00 00 00 00 00 00  returns 0x00 (0002ms, 0527ms total)
T1BA0 000:608 JLINK_GetDebugInfo(0x102 = JLINKARM_DEBUG_INFO_MTB_ADDR_INDEX) -- Value=0x00000000  returns 0x00 (0000ms, 0527ms total)
T1BA0 000:608 JLINK_GetDebugInfo(0x103 = JLINKARM_DEBUG_INFO_TPIU_ADDR_INDEX) -- Value=0x00000000  returns 0x00 (0000ms, 0527ms total)
T1BA0 000:608 JLINK_ReadMem (0xE0040FF0, 0x0010 Bytes, ...) -- CPU_ReadMem(16 bytes @ 0xE0040FF0) - Data: 00 00 00 00 00 00 00 00 00 00 00 00 00 00 00 00  returns 0x00 (0001ms, 0528ms total)
T1BA0 000:609 JLINK_GetDebugInfo(0x104 = JLINKARM_DEBUG_INFO_ITM_ADDR_INDEX) -- Value=0xE0000000  returns 0x00 (0000ms, 0528ms total)
T1BA0 000:609 JLINK_GetDebugInfo(0x105 = JLINKARM_DEBUG_INFO_DWT_ADDR_INDEX) -- Value=0xE0001000  returns 0x00 (0000ms, 0528ms total)
T1BA0 000:609 JLINK_GetDebugInfo(0x106 = JLINKARM_DEBUG_INFO_FPB_ADDR_INDEX) -- Value=0xE0002000  returns 0x00 (0000ms, 0528ms total)
T1BA0 000:609 JLINK_GetDebugInfo(0x107 = JLINKARM_DEBUG_INFO_NVIC_ADDR_INDEX) -- Value=0xE000E000  returns 0x00 (0000ms, 0528ms total)
T1BA0 000:609 JLINK_GetDebugInfo(0x10C = JLINKARM_DEBUG_INFO_DBG_ADDR_INDEX) -- Value=0xE000EDF0  returns 0x00 (0000ms, 0528ms total)
T1BA0 000:609 JLINK_ReadMemU32(0xE000ED00, 0x0001 Items, ...) -- CPU_ReadMem(4 bytes @ 0xE000ED00) - Data: 00 C6 0C 41  returns 0x01 (0001ms, 0529ms total)
T1BA0 000:610 JLINK_SetResetType(JLINKARM_CM3_RESET_TYPE_NORMAL)  returns JLINKARM_CM3_RESET_TYPE_NORMAL (0000ms, 0529ms total)
T1BA0 000:610 JLINK_Reset() -- CPU is running -- CPU_WriteMem(4 bytes @ 0xE000EDF0) -- CPU is running -- CPU_WriteMem(4 bytes @ 0xE000EDFC)Reset: Halt core after reset via DEMCR.VC_CORERESET. >0x35 TIF>Reset: Reset device via AIRCR.SYSRESETREQ. -- CPU is running -- CPU_WriteMem(4 bytes @ 0xE000ED0C) >0x0D TIF> >0x28 TIF> -- CPU_ReadMem(4 bytes @ 0xE000EDF0) -- CPU_ReadMem(4 bytes @ 0xE000EDF0) -- CPU is running -- CPU_WriteMem(4 bytes @ 0xE000EDF0) -- CPU is running -- CPU_WriteMem(4 bytes @ 0xE000EDFC)
 -- CPU_ReadMem(4 bytes @ 0xE000EDF0) -- CPU_WriteMem(4 bytes @ 0xE000EDFC) -- CPU_WriteMem(4 bytes @ 0xE000EDFC) -- CPU_WriteMem(4 bytes @ 0xE000EDFC) -- CPU_WriteMem(4 bytes @ 0xE0001020) -- CPU_WriteMem(4 bytes @ 0xE0001024) -- CPU_WriteMem(4 bytes @ 0xE0001028) -- CPU_ReadMem(4 bytes @ 0xE0001000) -- CPU_WriteMem(4 bytes @ 0xE0001000) -- CPU_WriteMem(4 bytes @ 0xE000EDFC) -- CPU_WriteMem(4 bytes @ 0xE0001028) -- CPU_ReadMem(4 bytes @ 0x00000004) -- CPU_ReadMem(4 bytes @ 0xE0002000)
 -- CPU_ReadMem(4 bytes @ 0xE0002008) -- CPU_ReadMem(4 bytes @ 0xE000200C) -- CPU_ReadMem(4 bytes @ 0xE0002010) -- CPU_ReadMem(4 bytes @ 0xE0002014) -- CPU_WriteMem(4 bytes @ 0xE0002000) -- CPU_WriteMem(4 bytes @ 0xE0002008) -- CPU_WriteMem(4 bytes @ 0xE000200C) -- CPU_WriteMem(4 bytes @ 0xE0002010) -- CPU_WriteMem(4 bytes @ 0xE0002014) -- CPU_ReadMem(4 bytes @ 0xE0001000) -- CPU_WriteMem(4 bytes @ 0xE0001000) -- CPU_WriteMem(4 bytes @ 0xE0002000) -- CPU_WriteMem(4 bytes @ 0xE0002008)
 -- CPU_WriteMem(4 bytes @ 0xE000200C) -- CPU_WriteMem(4 bytes @ 0xE0002010) -- CPU_WriteMem(4 bytes @ 0xE0002014) -- CPU_WriteMem(4 bytes @ 0xE0002000) -- CPU_ReadMem(4 bytes @ 0xE000EDFC) -- CPU_ReadMem(4 bytes @ 0xE0001000) -- CPU_WriteMem(4 bytes @ 0xE0001000) (0333ms, 0862ms total)
T1BA0 000:943 JLINK_Halt()  returns 0x00 (0000ms, 0862ms total)
T1BA0 000:943 JLINK_IsHalted()  returns TRUE (0000ms, 0862ms total)
T1BA0 000:943 JLINK_ReadMemU32(0xE000EDF0, 0x0001 Items, ...) -- CPU_ReadMem(4 bytes @ 0xE000EDF0) - Data: 03 00 03 01  returns 0x01 (0002ms, 0864ms total)
T1BA0 000:945 JLINK_WriteU32(0xE000EDF0, 0xA05F0003) -- CPU_WriteMem(4 bytes @ 0xE000EDF0)  returns 0x00 (0001ms, 0865ms total)
T1BA0 000:946 JLINK_WriteU32(0xE000EDFC, 0x01000000) -- CPU_WriteMem(4 bytes @ 0xE000EDFC)  returns 0x00 (0001ms, 0866ms total)
T1BA0 000:982 JLINK_GetHWStatus(...)  returns 0x00 (0001ms, 0867ms total)
T1BA0 001:008 JLINK_GetNumBPUnits(Type = 0xFFFFFF00)  returns 0x04 (0000ms, 0867ms total)
T1BA0 001:008 JLINK_GetNumBPUnits(Type = 0xF0)  returns 0x2000 (0000ms, 0867ms total)
T1BA0 001:008 JLINK_GetNumWPUnits()  returns 0x02 (0000ms, 0867ms total)
T1BA0 001:038 JLINK_GetSpeed()  returns 0xFA0 (0000ms, 0867ms total)
T1BA0 001:052 JLINK_ReadMemU32(0xE000E004, 0x0001 Items, ...) -- CPU_ReadMem(4 bytes @ 0xE000E004) - Data: 00 00 00 00  returns 0x01 (0001ms, 0868ms total)
T1BA0 001:053 JLINK_Halt()  returns 0x00 (0000ms, 0868ms total)
T1BA0 001:053 JLINK_IsHalted()  returns TRUE (0000ms, 0868ms total)
T1BA0 001:058 JLINK_WriteMem(0x10000000, 0x0170 Bytes, ...) - Data: 00 BE 0A E0 0D 78 2D 06 68 40 08 24 40 00 00 D3 ... -- CPU_WriteMem(368 bytes @ 0x10000000)  returns 0x170 (0004ms, 0872ms total)
T1BA0 001:063 JLINK_WriteReg(R0, 0x00000000)  returns 0x00 (0000ms, 0872ms total)
T1BA0 001:063 JLINK_WriteReg(R1, 0x01194000)  returns 0x00 (0000ms, 0872ms total)
T1BA0 001:063 JLINK_WriteReg(R2, 0x00000001)  returns 0x00 (0000ms, 0872ms total)
T1BA0 001:063 JLINK_WriteReg(R3, 0x00000000)  returns 0x00 (0000ms, 0872ms total)
T1BA0 001:063 JLINK_WriteReg(R4, 0x00000000)  returns 0x00 (0000ms, 0872ms total)
T1BA0 001:063 JLINK_WriteReg(R5, 0x00000000)  returns 0x00 (0000ms, 0872ms total)
T1BA0 001:063 JLINK_WriteReg(R6, 0x00000000)  returns 0x00 (0000ms, 0872ms total)
T1BA0 001:063 JLINK_WriteReg(R7, 0x00000000)  returns 0x00 (0000ms, 0872ms total)
T1BA0 001:063 JLINK_WriteReg(R8, 0x00000000)  returns 0x00 (0000ms, 0872ms total)
T1BA0 001:063 JLINK_WriteReg(R9, 0x10000168)  returns 0x00 (0000ms, 0872ms total)
T1BA0 001:063 JLINK_WriteReg(R10, 0x00000000)  returns 0x00 (0000ms, 0872ms total)
T1BA0 001:063 JLINK_WriteReg(R11, 0x00000000)  returns 0x00 (0000ms, 0872ms total)
T1BA0 001:063 JLINK_WriteReg(R12, 0x00000000)  returns 0x00 (0000ms, 0872ms total)
T1BA0 001:063 JLINK_WriteReg(R13 (SP), 0x10000FE0)  returns 0x00 (0000ms, 0872ms total)
T1BA0 001:063 JLINK_WriteReg(R14, 0x10000001)  returns 0x00 (0000ms, 0872ms total)
T1BA0 001:063 JLINK_WriteReg(R15 (PC), 0x1000003C)  returns 0x00 (0000ms, 0872ms total)
T1BA0 001:063 JLINK_WriteReg(XPSR, 0x01000000)  returns 0x00 (0000ms, 0872ms total)
T1BA0 001:063 JLINK_WriteReg(MSP, 0x10000FE0)  returns 0x00 (0000ms, 0872ms total)
T1BA0 001:063 JLINK_WriteReg(PSP, 0x10000FE0)  returns 0x00 (0000ms, 0872ms total)
T1BA0 001:063 JLINK_WriteReg(CFBP, 0x00000000)  returns 0x00 (0000ms, 0872ms total)
T1BA0 001:063 JLINK_SetBPEx(Addr = 0x10000000, Type = 0xFFFFFFF2)  returns 0x00000001 (0000ms, 0872ms total)
T1BA0 001:063 JLINK_Go() -- CPU_WriteMem(4 bytes @ 0xE0002000) -- CPU_ReadMem(4 bytes @ 0xE0001000) -- CPU_WriteMem(4 bytes @ 0xE0001000) -- CPU_WriteMem(4 bytes @ 0xE0002008) -- CPU_WriteMem(4 bytes @ 0xE000200C) -- CPU_WriteMem(4 bytes @ 0xE0002010) -- CPU_WriteMem(4 bytes @ 0xE0002014) -- CPU_WriteMem(4 bytes @ 0xE0001004) (0010ms, 0882ms total)
T1BA0 001:073 JLINK_IsHalted()  returns TRUE (0004ms, 0886ms total)
T1BA0 001:077 JLINK_ReadReg(R15 (PC))  returns 0x10000000 (0000ms, 0882ms total)
T1BA0 001:077 JLINK_ClrBPEx(BPHandle = 0x00000001)  returns 0x00 (0000ms, 0882ms total)
T1BA0 001:077 JLINK_ReadReg(R0)  returns 0x00000000 (0000ms, 0882ms total)
T1BA0 001:077 JLINK_WriteReg(R0, 0x00000000)  returns 0x00 (0000ms, 0882ms total)
T1BA0 001:077 JLINK_WriteReg(R1, 0x00000400)  returns 0x00 (0000ms, 0882ms total)
T1BA0 001:077 JLINK_WriteReg(R2, 0x000000FF)  returns 0x00 (0000ms, 0882ms total)
T1BA0 001:077 JLINK_WriteReg(R3, 0x00000000)  returns 0x00 (0000ms, 0882ms total)
T1BA0 001:077 JLINK_WriteReg(R4, 0x00000000)  returns 0x00 (0000ms, 0882ms total)
T1BA0 001:077 JLINK_WriteReg(R5, 0x00000000)  returns 0x00 (0000ms, 0882ms total)
T1BA0 001:077 JLINK_WriteReg(R6, 0x00000000)  returns 0x00 (0000ms, 0882ms total)
T1BA0 001:077 JLINK_WriteReg(R7, 0x00000000)  returns 0x00 (0001ms, 0883ms total)
T1BA0 001:078 JLINK_WriteReg(R8, 0x00000000)  returns 0x00 (0000ms, 0883ms total)
T1BA0 001:078 JLINK_WriteReg(R9, 0x10000168)  returns 0x00 (0000ms, 0883ms total)
T1BA0 001:078 JLINK_WriteReg(R10, 0x00000000)  returns 0x00 (0000ms, 0883ms total)
T1BA0 001:078 JLINK_WriteReg(R11, 0x00000000)  returns 0x00 (0000ms, 0883ms total)
T1BA0 001:078 JLINK_WriteReg(R12, 0x00000000)  returns 0x00 (0000ms, 0883ms total)
T1BA0 001:078 JLINK_WriteReg(R13 (SP), 0x10000FE0)  returns 0x00 (0000ms, 0883ms total)
T1BA0 001:078 JLINK_WriteReg(R14, 0x10000001)  returns 0x00 (0000ms, 0883ms total)
T1BA0 001:078 JLINK_WriteReg(R15 (PC), 0x10000020)  returns 0x00 (0000ms, 0883ms total)
T1BA0 001:078 JLINK_WriteReg(XPSR, 0x01000000)  returns 0x00 (0000ms, 0883ms total)
T1BA0 001:078 JLINK_WriteReg(MSP, 0x10000FE0)  returns 0x00 (0000ms, 0883ms total)
T1BA0 001:078 JLINK_WriteReg(PSP, 0x10000FE0)  returns 0x00 (0000ms, 0883ms total)
T1BA0 001:078 JLINK_WriteReg(CFBP, 0x00000000)  returns 0x00 (0000ms, 0883ms total)
T1BA0 001:078 JLINK_SetBPEx(Addr = 0x10000000, Type = 0xFFFFFFF2)  returns 0x00000002 (0000ms, 0883ms total)
T1BA0 001:078 JLINK_Go() -- CPU_WriteMem(4 bytes @ 0xE0002000) -- CPU_ReadMem(4 bytes @ 0xE0001000) -- CPU_WriteMem(4 bytes @ 0xE0001000) (0006ms, 0889ms total)
T1BA0 001:084 JLINK_IsHalted()  returns TRUE (0004ms, 0893ms total)
T1BA0 001:088 JLINK_ReadReg(R15 (PC))  returns 0x10000000 (0000ms, 0889ms total)
T1BA0 001:088 JLINK_ClrBPEx(BPHandle = 0x00000002)  returns 0x00 (0000ms, 0889ms total)
T1BA0 001:088 JLINK_ReadReg(R0)  returns 0x00000001 (0000ms, 0889ms total)
T1BA0 001:088 JLINK_WriteReg(R0, 0x00000000)  returns 0x00 (0000ms, 0889ms total)
T1BA0 001:088 JLINK_WriteReg(R1, 0x00000400)  returns 0x00 (0000ms, 0889ms total)
T1BA0 001:088 JLINK_WriteReg(R2, 0x000000FF)  returns 0x00 (0000ms, 0889ms total)
T1BA0 001:088 JLINK_WriteReg(R3, 0x00000000)  returns 0x00 (0000ms, 0889ms total)
T1BA0 001:088 JLINK_WriteReg(R4, 0x00000000)  returns 0x00 (0000ms, 0889ms total)
T1BA0 001:088 JLINK_WriteReg(R5, 0x00000000)  returns 0x00 (0000ms, 0889ms total)
T1BA0 001:088 JLINK_WriteReg(R6, 0x00000000)  returns 0x00 (0000ms, 0889ms total)
T1BA0 001:088 JLINK_WriteReg(R7, 0x00000000)  returns 0x00 (0000ms, 0889ms total)
T1BA0 001:088 JLINK_WriteReg(R8, 0x00000000)  returns 0x00 (0000ms, 0889ms total)
T1BA0 001:088 JLINK_WriteReg(R9, 0x10000168)  returns 0x00 (0000ms, 0889ms total)
T1BA0 001:088 JLINK_WriteReg(R10, 0x00000000)  returns 0x00 (0000ms, 0889ms total)
T1BA0 001:088 JLINK_WriteReg(R11, 0x00000000)  returns 0x00 (0000ms, 0889ms total)
T1BA0 001:088 JLINK_WriteReg(R12, 0x00000000)  returns 0x00 (0000ms, 0889ms total)
T1BA0 001:088 JLINK_WriteReg(R13 (SP), 0x10000FE0)  returns 0x00 (0000ms, 0889ms total)
T1BA0 001:088 JLINK_WriteReg(R14, 0x10000001)  returns 0x00 (0001ms, 0890ms total)
T1BA0 001:089 JLINK_WriteReg(R15 (PC), 0x100000A4)  returns 0x00 (0000ms, 0890ms total)
T1BA0 001:089 JLINK_WriteReg(XPSR, 0x01000000)  returns 0x00 (0000ms, 0890ms total)
T1BA0 001:089 JLINK_WriteReg(MSP, 0x10000FE0)  returns 0x00 (0000ms, 0890ms total)
T1BA0 001:089 JLINK_WriteReg(PSP, 0x10000FE0)  returns 0x00 (0000ms, 0890ms total)
T1BA0 001:089 JLINK_WriteReg(CFBP, 0x00000000)  returns 0x00 (0000ms, 0890ms total)
T1BA0 001:089 JLINK_SetBPEx(Addr = 0x10000000, Type = 0xFFFFFFF2)  returns 0x00000003 (0000ms, 0890ms total)
T1BA0 001:089 JLINK_Go() -- CPU_WriteMem(4 bytes @ 0xE0002000) -- CPU_ReadMem(4 bytes @ 0xE0001000) -- CPU_WriteMem(4 bytes @ 0xE0001000) (0006ms, 0896ms total)
T1BA0 001:095 JLINK_IsHalted()  returns FALSE (0001ms, 0897ms total)
T1BA0 001:199 JLINK_IsHalted()  returns TRUE (0003ms, 0899ms total)
T1BA0 001:202 JLINK_ReadReg(R15 (PC))  returns 0x10000000 (0000ms, 0896ms total)
T1BA0 001:202 JLINK_ClrBPEx(BPHandle = 0x00000003)  returns 0x00 (0000ms, 0896ms total)
T1BA0 001:202 JLINK_ReadReg(R0)  returns 0x00000000 (0000ms, 0896ms total)
T1BA0 001:203 JLINK_WriteReg(R0, 0x00000400)  returns 0x00 (0000ms, 0896ms total)
T1BA0 001:203 JLINK_WriteReg(R1, 0x00000400)  returns 0x00 (0000ms, 0896ms total)
T1BA0 001:203 JLINK_WriteReg(R2, 0x000000FF)  returns 0x00 (0000ms, 0896ms total)
T1BA0 001:203 JLINK_WriteReg(R3, 0x00000000)  returns 0x00 (0000ms, 0896ms total)
T1BA0 001:203 JLINK_WriteReg(R4, 0x00000000)  returns 0x00 (0000ms, 0896ms total)
T1BA0 001:203 JLINK_WriteReg(R5, 0x00000000)  returns 0x00 (0000ms, 0896ms total)
T1BA0 001:203 JLINK_WriteReg(R6, 0x00000000)  returns 0x00 (0000ms, 0896ms total)
T1BA0 001:203 JLINK_WriteReg(R7, 0x00000000)  returns 0x00 (0000ms, 0896ms total)
T1BA0 001:203 JLINK_WriteReg(R8, 0x00000000)  returns 0x00 (0000ms, 0896ms total)
T1BA0 001:203 JLINK_WriteReg(R9, 0x10000168)  returns 0x00 (0000ms, 0896ms total)
T1BA0 001:203 JLINK_WriteReg(R10, 0x00000000)  returns 0x00 (0000ms, 0896ms total)
T1BA0 001:203 JLINK_WriteReg(R11, 0x00000000)  returns 0x00 (0000ms, 0896ms total)
T1BA0 001:203 JLINK_WriteReg(R12, 0x00000000)  returns 0x00 (0001ms, 0897ms total)
T1BA0 001:204 JLINK_WriteReg(R13 (SP), 0x10000FE0)  returns 0x00 (0000ms, 0897ms total)
T1BA0 001:204 JLINK_WriteReg(R14, 0x10000001)  returns 0x00 (0000ms, 0897ms total)
T1BA0 001:204 JLINK_WriteReg(R15 (PC), 0x10000020)  returns 0x00 (0000ms, 0897ms total)
T1BA0 001:204 JLINK_WriteReg(XPSR, 0x01000000)  returns 0x00 (0000ms, 0897ms total)
T1BA0 001:204 JLINK_WriteReg(MSP, 0x10000FE0)  returns 0x00 (0000ms, 0897ms total)
T1BA0 001:204 JLINK_WriteReg(PSP, 0x10000FE0)  returns 0x00 (0000ms, 0897ms total)
T1BA0 001:204 JLINK_WriteReg(CFBP, 0x00000000)  returns 0x00 (0000ms, 0897ms total)
T1BA0 001:204 JLINK_SetBPEx(Addr = 0x10000000, Type = 0xFFFFFFF2)  returns 0x00000004 (0000ms, 0897ms total)
T1BA0 001:204 JLINK_Go() -- CPU_WriteMem(4 bytes @ 0xE0002000) -- CPU_ReadMem(4 bytes @ 0xE0001000) -- CPU_WriteMem(4 bytes @ 0xE0001000) (0005ms, 0902ms total)
T1BA0 001:210 JLINK_IsHalted()  returns TRUE (0003ms, 0906ms total)
T1BA0 001:213 JLINK_ReadReg(R15 (PC))  returns 0x10000000 (0000ms, 0903ms total)
T1BA0 001:213 JLINK_ClrBPEx(BPHandle = 0x00000004)  returns 0x00 (0000ms, 0903ms total)
T1BA0 001:213 JLINK_ReadReg(R0)  returns 0x00000001 (0000ms, 0903ms total)
T1BA0 001:213 JLINK_WriteReg(R0, 0x00000400)  returns 0x00 (0000ms, 0903ms total)
T1BA0 001:213 JLINK_WriteReg(R1, 0x00000400)  returns 0x00 (0000ms, 0903ms total)
T1BA0 001:213 JLINK_WriteReg(R2, 0x000000FF)  returns 0x00 (0000ms, 0903ms total)
T1BA0 001:213 JLINK_WriteReg(R3, 0x00000000)  returns 0x00 (0000ms, 0903ms total)
T1BA0 001:213 JLINK_WriteReg(R4, 0x00000000)  returns 0x00 (0000ms, 0903ms total)
T1BA0 001:213 JLINK_WriteReg(R5, 0x00000000)  returns 0x00 (0000ms, 0903ms total)
T1BA0 001:213 JLINK_WriteReg(R6, 0x00000000)  returns 0x00 (0000ms, 0903ms total)
T1BA0 001:213 JLINK_WriteReg(R7, 0x00000000)  returns 0x00 (0000ms, 0903ms total)
T1BA0 001:213 JLINK_WriteReg(R8, 0x00000000)  returns 0x00 (0000ms, 0903ms total)
T1BA0 001:213 JLINK_WriteReg(R9, 0x10000168)  returns 0x00 (0000ms, 0903ms total)
T1BA0 001:213 JLINK_WriteReg(R10, 0x00000000)  returns 0x00 (0000ms, 0903ms total)
T1BA0 001:213 JLINK_WriteReg(R11, 0x00000000)  returns 0x00 (0000ms, 0903ms total)
T1BA0 001:213 JLINK_WriteReg(R12, 0x00000000)  returns 0x00 (0000ms, 0903ms total)
T1BA0 001:213 JLINK_WriteReg(R13 (SP), 0x10000FE0)  returns 0x00 (0000ms, 0903ms total)
T1BA0 001:213 JLINK_WriteReg(R14, 0x10000001)  returns 0x00 (0000ms, 0903ms total)
T1BA0 001:213 JLINK_WriteReg(R15 (PC), 0x100000A4)  returns 0x00 (0000ms, 0903ms total)
T1BA0 001:213 JLINK_WriteReg(XPSR, 0x01000000)  returns 0x00 (0000ms, 0903ms total)
T1BA0 001:213 JLINK_WriteReg(MSP, 0x10000FE0)  returns 0x00 (0000ms, 0903ms total)
T1BA0 001:213 JLINK_WriteReg(PSP, 0x10000FE0)  returns 0x00 (0000ms, 0903ms total)
T1BA0 001:213 JLINK_WriteReg(CFBP, 0x00000000)  returns 0x00 (0000ms, 0903ms total)
T1BA0 001:213 JLINK_SetBPEx(Addr = 0x10000000, Type = 0xFFFFFFF2)  returns 0x00000005 (0001ms, 0904ms total)
T1BA0 001:214 JLINK_Go() -- CPU_WriteMem(4 bytes @ 0xE0002000) -- CPU_ReadMem(4 bytes @ 0xE0001000) -- CPU_WriteMem(4 bytes @ 0xE0001000) (0005ms, 0909ms total)
T1BA0 001:219 JLINK_IsHalted()  returns FALSE (0001ms, 0910ms total)
T1BA0 001:222 JLINK_IsHalted()  returns FALSE (0001ms, 0910ms total)
T1BA0 001:225 JLINK_IsHalted()  returns FALSE (0001ms, 0910ms total)
T1BA0 001:228 JLINK_IsHalted()  returns FALSE (0001ms, 0910ms total)
T1BA0 001:231 JLINK_IsHalted()  returns FALSE (0001ms, 0910ms total)
T1BA0 001:234 JLINK_IsHalted()  returns FALSE (0001ms, 0910ms total)
T1BA0 001:237 JLINK_IsHalted()  returns FALSE (0000ms, 0909ms total)
T1BA0 001:244 JLINK_IsHalted()  returns FALSE (0002ms, 0911ms total)
T1BA0 001:247 JLINK_IsHalted()  returns FALSE (0000ms, 0909ms total)
T1BA0 001:249 JLINK_IsHalted()  returns FALSE (0001ms, 0910ms total)
T1BA0 001:252 JLINK_IsHalted()  returns FALSE (0001ms, 0910ms total)
T1BA0 001:255 JLINK_IsHalted()  returns FALSE (0001ms, 0910ms total)
T1BA0 001:258 JLINK_IsHalted()  returns FALSE (0001ms, 0910ms total)
T1BA0 001:261 JLINK_IsHalted()  returns FALSE (0001ms, 0910ms total)
T1BA0 001:264 JLINK_IsHalted()  returns FALSE (0001ms, 0910ms total)
T1BA0 001:267 JLINK_IsHalted()  returns FALSE (0001ms, 0910ms total)
T1BA0 001:270 JLINK_IsHalted()  returns FALSE (0001ms, 0910ms total)
T1BA0 001:273 JLINK_IsHalted()  returns FALSE (0001ms, 0910ms total)
T1BA0 001:276 JLINK_IsHalted()  returns FALSE (0001ms, 0910ms total)
T1BA0 001:279 JLINK_IsHalted()  returns FALSE (0001ms, 0910ms total)
T1BA0 001:282 JLINK_IsHalted()  returns FALSE (0001ms, 0910ms total)
T1BA0 001:285 JLINK_IsHalted()  returns FALSE (0001ms, 0910ms total)
T1BA0 001:288 JLINK_IsHalted()  returns FALSE (0001ms, 0910ms total)
T1BA0 001:292 JLINK_IsHalted()  returns FALSE (0000ms, 0909ms total)
T1BA0 001:295 JLINK_IsHalted()  returns FALSE (0000ms, 0909ms total)
T1BA0 001:297 JLINK_IsHalted()  returns FALSE (0002ms, 0911ms total)
T1BA0 001:301 JLINK_IsHalted()  returns FALSE (0000ms, 0909ms total)
T1BA0 001:303 JLINK_IsHalted()  returns FALSE (0000ms, 0909ms total)
T1BA0 001:305 JLINK_IsHalted()  returns FALSE (0000ms, 0909ms total)
T1BA0 001:308 JLINK_IsHalted()  returns FALSE (0000ms, 0909ms total)
T1BA0 001:310 JLINK_IsHalted()  returns FALSE (0001ms, 0910ms total)
T1BA0 001:313 JLINK_IsHalted()  returns FALSE (0002ms, 0911ms total)
T1BA0 001:320 JLINK_IsHalted()  returns TRUE (0004ms, 0913ms total)
T1BA0 001:324 JLINK_ReadReg(R15 (PC))  returns 0x10000000 (0000ms, 0909ms total)
T1BA0 001:324 JLINK_ClrBPEx(BPHandle = 0x00000005)  returns 0x00 (0000ms, 0909ms total)
T1BA0 001:324 JLINK_ReadReg(R0)  returns 0x00000000 (0000ms, 0909ms total)
T1BA0 001:324 JLINK_WriteReg(R0, 0x00000800)  returns 0x00 (0000ms, 0909ms total)
T1BA0 001:324 JLINK_WriteReg(R1, 0x00000400)  returns 0x00 (0000ms, 0909ms total)
T1BA0 001:324 JLINK_WriteReg(R2, 0x000000FF)  returns 0x00 (0000ms, 0909ms total)
T1BA0 001:324 JLINK_WriteReg(R3, 0x00000000)  returns 0x00 (0001ms, 0910ms total)
T1BA0 001:325 JLINK_WriteReg(R4, 0x00000000)  returns 0x00 (0000ms, 0910ms total)
T1BA0 001:325 JLINK_WriteReg(R5, 0x00000000)  returns 0x00 (0000ms, 0910ms total)
T1BA0 001:325 JLINK_WriteReg(R6, 0x00000000)  returns 0x00 (0000ms, 0910ms total)
T1BA0 001:325 JLINK_WriteReg(R7, 0x00000000)  returns 0x00 (0000ms, 0910ms total)
T1BA0 001:325 JLINK_WriteReg(R8, 0x00000000)  returns 0x00 (0000ms, 0910ms total)
T1BA0 001:325 JLINK_WriteReg(R9, 0x10000168)  returns 0x00 (0000ms, 0910ms total)
T1BA0 001:325 JLINK_WriteReg(R10, 0x00000000)  returns 0x00 (0000ms, 0910ms total)
T1BA0 001:325 JLINK_WriteReg(R11, 0x00000000)  returns 0x00 (0000ms, 0910ms total)
T1BA0 001:325 JLINK_WriteReg(R12, 0x00000000)  returns 0x00 (0000ms, 0910ms total)
T1BA0 001:325 JLINK_WriteReg(R13 (SP), 0x10000FE0)  returns 0x00 (0000ms, 0910ms total)
T1BA0 001:325 JLINK_WriteReg(R14, 0x10000001)  returns 0x00 (0000ms, 0910ms total)
T1BA0 001:325 JLINK_WriteReg(R15 (PC), 0x10000020)  returns 0x00 (0000ms, 0910ms total)
T1BA0 001:325 JLINK_WriteReg(XPSR, 0x01000000)  returns 0x00 (0000ms, 0910ms total)
T1BA0 001:325 JLINK_WriteReg(MSP, 0x10000FE0)  returns 0x00 (0000ms, 0910ms total)
T1BA0 001:325 JLINK_WriteReg(PSP, 0x10000FE0)  returns 0x00 (0000ms, 0910ms total)
T1BA0 001:325 JLINK_WriteReg(CFBP, 0x00000000)  returns 0x00 (0000ms, 0910ms total)
T1BA0 001:325 JLINK_SetBPEx(Addr = 0x10000000, Type = 0xFFFFFFF2)  returns 0x00000006 (0000ms, 0910ms total)
T1BA0 001:325 JLINK_Go() -- CPU_WriteMem(4 bytes @ 0xE0002000) -- CPU_ReadMem(4 bytes @ 0xE0001000) -- CPU_WriteMem(4 bytes @ 0xE0001000) (0006ms, 0916ms total)
T1BA0 001:331 JLINK_IsHalted()  returns TRUE (0004ms, 0920ms total)
T1BA0 001:335 JLINK_ReadReg(R15 (PC))  returns 0x10000000 (0000ms, 0916ms total)
T1BA0 001:335 JLINK_ClrBPEx(BPHandle = 0x00000006)  returns 0x00 (0000ms, 0916ms total)
T1BA0 001:335 JLINK_ReadReg(R0)  returns 0x00000001 (0000ms, 0916ms total)
T1BA0 001:335 JLINK_WriteReg(R0, 0x00000800)  returns 0x00 (0000ms, 0916ms total)
T1BA0 001:335 JLINK_WriteReg(R1, 0x00000400)  returns 0x00 (0000ms, 0916ms total)
T1BA0 001:335 JLINK_WriteReg(R2, 0x000000FF)  returns 0x00 (0000ms, 0916ms total)
T1BA0 001:335 JLINK_WriteReg(R3, 0x00000000)  returns 0x00 (0000ms, 0916ms total)
T1BA0 001:335 JLINK_WriteReg(R4, 0x00000000)  returns 0x00 (0000ms, 0916ms total)
T1BA0 001:335 JLINK_WriteReg(R5, 0x00000000)  returns 0x00 (0000ms, 0916ms total)
T1BA0 001:335 JLINK_WriteReg(R6, 0x00000000)  returns 0x00 (0000ms, 0916ms total)
T1BA0 001:335 JLINK_WriteReg(R7, 0x00000000)  returns 0x00 (0000ms, 0916ms total)
T1BA0 001:335 JLINK_WriteReg(R8, 0x00000000)  returns 0x00 (0000ms, 0916ms total)
T1BA0 001:335 JLINK_WriteReg(R9, 0x10000168)  returns 0x00 (0000ms, 0916ms total)
T1BA0 001:335 JLINK_WriteReg(R10, 0x00000000)  returns 0x00 (0000ms, 0916ms total)
T1BA0 001:335 JLINK_WriteReg(R11, 0x00000000)  returns 0x00 (0000ms, 0916ms total)
T1BA0 001:335 JLINK_WriteReg(R12, 0x00000000)  returns 0x00 (0000ms, 0916ms total)
T1BA0 001:335 JLINK_WriteReg(R13 (SP), 0x10000FE0)  returns 0x00 (0000ms, 0916ms total)
T1BA0 001:335 JLINK_WriteReg(R14, 0x10000001)  returns 0x00 (0000ms, 0916ms total)
T1BA0 001:335 JLINK_WriteReg(R15 (PC), 0x100000A4)  returns 0x00 (0000ms, 0916ms total)
T1BA0 001:335 JLINK_WriteReg(XPSR, 0x01000000)  returns 0x00 (0000ms, 0916ms total)
T1BA0 001:335 JLINK_WriteReg(MSP, 0x10000FE0)  returns 0x00 (0000ms, 0916ms total)
T1BA0 001:335 JLINK_WriteReg(PSP, 0x10000FE0)  returns 0x00 (0000ms, 0916ms total)
T1BA0 001:335 JLINK_WriteReg(CFBP, 0x00000000)  returns 0x00 (0000ms, 0916ms total)
T1BA0 001:335 JLINK_SetBPEx(Addr = 0x10000000, Type = 0xFFFFFFF2)  returns 0x00000007 (0000ms, 0916ms total)
T1BA0 001:336 JLINK_Go() -- CPU_WriteMem(4 bytes @ 0xE0002000) -- CPU_ReadMem(4 bytes @ 0xE0001000) -- CPU_WriteMem(4 bytes @ 0xE0001000) (0006ms, 0923ms total)
T1BA0 001:342 JLINK_IsHalted()  returns FALSE (0001ms, 0924ms total)
T1BA0 001:361 JLINK_IsHalted()  returns FALSE (0000ms, 0923ms total)
T1BA0 001:366 JLINK_IsHalted()  returns FALSE (0001ms, 0924ms total)
T1BA0 001:369 JLINK_IsHalted()  returns FALSE (0000ms, 0923ms total)
T1BA0 001:375 JLINK_IsHalted()  returns FALSE (0000ms, 0923ms total)
T1BA0 001:377 JLINK_IsHalted()  returns FALSE (0000ms, 0923ms total)
T1BA0 001:382 JLINK_IsHalted()  returns FALSE (0000ms, 0923ms total)
T1BA0 001:384 JLINK_IsHalted()  returns FALSE (0000ms, 0923ms total)
T1BA0 001:386 JLINK_IsHalted()  returns FALSE (0000ms, 0923ms total)
T1BA0 001:391 JLINK_IsHalted()  returns FALSE (0001ms, 0924ms total)
T1BA0 001:394 JLINK_IsHalted()  returns FALSE (0000ms, 0923ms total)
T1BA0 001:399 JLINK_IsHalted()  returns FALSE (0000ms, 0923ms total)
T1BA0 001:401 JLINK_IsHalted()  returns FALSE (0000ms, 0923ms total)
T1BA0 001:406 JLINK_IsHalted()  returns FALSE (0000ms, 0923ms total)
T1BA0 001:408 JLINK_IsHalted()  returns FALSE (0000ms, 0923ms total)
T1BA0 001:419 JLINK_IsHalted()  returns FALSE (0001ms, 0924ms total)
T1BA0 001:424 JLINK_IsHalted()  returns FALSE (0001ms, 0924ms total)
T1BA0 001:427 JLINK_IsHalted()  returns FALSE (0001ms, 0924ms total)
T1BA0 001:430 JLINK_IsHalted()  returns FALSE (0001ms, 0924ms total)
T1BA0 001:433 JLINK_IsHalted()  returns FALSE (0001ms, 0924ms total)
T1BA0 001:436 JLINK_IsHalted()  returns FALSE (0001ms, 0924ms total)
T1BA0 001:438 JLINK_IsHalted()  returns FALSE (0001ms, 0924ms total)
T1BA0 001:441 JLINK_IsHalted()  returns FALSE (0000ms, 0923ms total)
T1BA0 001:443 JLINK_IsHalted()  returns TRUE (0003ms, 0926ms total)
T1BA0 001:446 JLINK_ReadReg(R15 (PC))  returns 0x10000000 (0000ms, 0923ms total)
T1BA0 001:446 JLINK_ClrBPEx(BPHandle = 0x00000007)  returns 0x00 (0000ms, 0923ms total)
T1BA0 001:446 JLINK_ReadReg(R0)  returns 0x00000000 (0000ms, 0923ms total)
T1BA0 001:447 JLINK_WriteReg(R0, 0x00000C00)  returns 0x00 (0000ms, 0923ms total)
T1BA0 001:447 JLINK_WriteReg(R1, 0x00000400)  returns 0x00 (0000ms, 0923ms total)
T1BA0 001:447 JLINK_WriteReg(R2, 0x000000FF)  returns 0x00 (0000ms, 0923ms total)
T1BA0 001:447 JLINK_WriteReg(R3, 0x00000000)  returns 0x00 (0000ms, 0923ms total)
T1BA0 001:447 JLINK_WriteReg(R4, 0x00000000)  returns 0x00 (0000ms, 0923ms total)
T1BA0 001:447 JLINK_WriteReg(R5, 0x00000000)  returns 0x00 (0000ms, 0923ms total)
T1BA0 001:447 JLINK_WriteReg(R6, 0x00000000)  returns 0x00 (0000ms, 0923ms total)
T1BA0 001:447 JLINK_WriteReg(R7, 0x00000000)  returns 0x00 (0000ms, 0923ms total)
T1BA0 001:447 JLINK_WriteReg(R8, 0x00000000)  returns 0x00 (0000ms, 0923ms total)
T1BA0 001:447 JLINK_WriteReg(R9, 0x10000168)  returns 0x00 (0000ms, 0923ms total)
T1BA0 001:447 JLINK_WriteReg(R10, 0x00000000)  returns 0x00 (0000ms, 0923ms total)
T1BA0 001:447 JLINK_WriteReg(R11, 0x00000000)  returns 0x00 (0000ms, 0923ms total)
T1BA0 001:447 JLINK_WriteReg(R12, 0x00000000)  returns 0x00 (0000ms, 0923ms total)
T1BA0 001:447 JLINK_WriteReg(R13 (SP), 0x10000FE0)  returns 0x00 (0000ms, 0923ms total)
T1BA0 001:447 JLINK_WriteReg(R14, 0x10000001)  returns 0x00 (0000ms, 0923ms total)
T1BA0 001:447 JLINK_WriteReg(R15 (PC), 0x10000020)  returns 0x00 (0000ms, 0923ms total)
T1BA0 001:447 JLINK_WriteReg(XPSR, 0x01000000)  returns 0x00 (0000ms, 0923ms total)
T1BA0 001:447 JLINK_WriteReg(MSP, 0x10000FE0)  returns 0x00 (0000ms, 0923ms total)
T1BA0 001:447 JLINK_WriteReg(PSP, 0x10000FE0)  returns 0x00 (0000ms, 0923ms total)
T1BA0 001:447 JLINK_WriteReg(CFBP, 0x00000000)  returns 0x00 (0000ms, 0923ms total)
T1BA0 001:447 JLINK_SetBPEx(Addr = 0x10000000, Type = 0xFFFFFFF2)  returns 0x00000008 (0000ms, 0923ms total)
T1BA0 001:447 JLINK_Go() -- CPU_WriteMem(4 bytes @ 0xE0002000) -- CPU_ReadMem(4 bytes @ 0xE0001000) -- CPU_WriteMem(4 bytes @ 0xE0001000) (0005ms, 0928ms total)
T1BA0 001:452 JLINK_IsHalted()  returns TRUE (0003ms, 0931ms total)
T1BA0 001:455 JLINK_ReadReg(R15 (PC))  returns 0x10000000 (0000ms, 0928ms total)
T1BA0 001:456 JLINK_ClrBPEx(BPHandle = 0x00000008)  returns 0x00 (0000ms, 0929ms total)
T1BA0 001:456 JLINK_ReadReg(R0)  returns 0x00000001 (0000ms, 0929ms total)
T1BA0 001:456 JLINK_WriteReg(R0, 0x00000C00)  returns 0x00 (0000ms, 0929ms total)
T1BA0 001:456 JLINK_WriteReg(R1, 0x00000400)  returns 0x00 (0000ms, 0929ms total)
T1BA0 001:456 JLINK_WriteReg(R2, 0x000000FF)  returns 0x00 (0000ms, 0929ms total)
T1BA0 001:456 JLINK_WriteReg(R3, 0x00000000)  returns 0x00 (0000ms, 0929ms total)
T1BA0 001:456 JLINK_WriteReg(R4, 0x00000000)  returns 0x00 (0000ms, 0929ms total)
T1BA0 001:456 JLINK_WriteReg(R5, 0x00000000)  returns 0x00 (0000ms, 0929ms total)
T1BA0 001:456 JLINK_WriteReg(R6, 0x00000000)  returns 0x00 (0000ms, 0929ms total)
T1BA0 001:456 JLINK_WriteReg(R7, 0x00000000)  returns 0x00 (0000ms, 0929ms total)
T1BA0 001:456 JLINK_WriteReg(R8, 0x00000000)  returns 0x00 (0000ms, 0929ms total)
T1BA0 001:456 JLINK_WriteReg(R9, 0x10000168)  returns 0x00 (0000ms, 0929ms total)
T1BA0 001:456 JLINK_WriteReg(R10, 0x00000000)  returns 0x00 (0000ms, 0929ms total)
T1BA0 001:456 JLINK_WriteReg(R11, 0x00000000)  returns 0x00 (0000ms, 0929ms total)
T1BA0 001:456 JLINK_WriteReg(R12, 0x00000000)  returns 0x00 (0000ms, 0929ms total)
T1BA0 001:456 JLINK_WriteReg(R13 (SP), 0x10000FE0)  returns 0x00 (0000ms, 0929ms total)
T1BA0 001:456 JLINK_WriteReg(R14, 0x10000001)  returns 0x00 (0000ms, 0929ms total)
T1BA0 001:456 JLINK_WriteReg(R15 (PC), 0x100000A4)  returns 0x00 (0000ms, 0929ms total)
T1BA0 001:456 JLINK_WriteReg(XPSR, 0x01000000)  returns 0x00 (0000ms, 0929ms total)
T1BA0 001:456 JLINK_WriteReg(MSP, 0x10000FE0)  returns 0x00 (0000ms, 0929ms total)
T1BA0 001:456 JLINK_WriteReg(PSP, 0x10000FE0)  returns 0x00 (0000ms, 0929ms total)
T1BA0 001:456 JLINK_WriteReg(CFBP, 0x00000000)  returns 0x00 (0000ms, 0929ms total)
T1BA0 001:456 JLINK_SetBPEx(Addr = 0x10000000, Type = 0xFFFFFFF2)  returns 0x00000009 (0001ms, 0930ms total)
T1BA0 001:457 JLINK_Go() -- CPU_WriteMem(4 bytes @ 0xE0002000) -- CPU_ReadMem(4 bytes @ 0xE0001000) -- CPU_WriteMem(4 bytes @ 0xE0001000) (0004ms, 0934ms total)
T1BA0 001:461 JLINK_IsHalted()  returns FALSE (0001ms, 0935ms total)
T1BA0 001:466 JLINK_IsHalted()  returns FALSE (0000ms, 0934ms total)
T1BA0 001:468 JLINK_IsHalted()  returns FALSE (0000ms, 0934ms total)
T1BA0 001:471 JLINK_IsHalted()  returns FALSE (0001ms, 0935ms total)
T1BA0 001:474 JLINK_IsHalted()  returns FALSE (0000ms, 0934ms total)
T1BA0 001:476 JLINK_IsHalted()  returns FALSE (0000ms, 0934ms total)
T1BA0 001:478 JLINK_IsHalted()  returns FALSE (0000ms, 0934ms total)
T1BA0 001:480 JLINK_IsHalted()  returns FALSE (0001ms, 0935ms total)
T1BA0 001:483 JLINK_IsHalted()  returns FALSE (0000ms, 0934ms total)
T1BA0 001:485 JLINK_IsHalted()  returns FALSE (0001ms, 0935ms total)
T1BA0 001:488 JLINK_IsHalted()  returns FALSE (0000ms, 0934ms total)
T1BA0 001:490 JLINK_IsHalted()  returns FALSE (0000ms, 0934ms total)
T1BA0 001:492 JLINK_IsHalted()  returns FALSE (0001ms, 0935ms total)
T1BA0 001:495 JLINK_IsHalted()  returns FALSE (0000ms, 0934ms total)
T1BA0 001:497 JLINK_IsHalted()  returns FALSE (0000ms, 0934ms total)
T1BA0 001:499 JLINK_IsHalted()  returns FALSE (0001ms, 0935ms total)
T1BA0 001:502 JLINK_IsHalted()  returns FALSE (0001ms, 0935ms total)
T1BA0 001:505 JLINK_IsHalted()  returns FALSE (0000ms, 0934ms total)
T1BA0 001:507 JLINK_IsHalted()  returns FALSE (0001ms, 0935ms total)
T1BA0 001:510 JLINK_IsHalted()  returns FALSE (0001ms, 0935ms total)
T1BA0 001:513 JLINK_IsHalted()  returns FALSE (0001ms, 0935ms total)
T1BA0 001:516 JLINK_IsHalted()  returns FALSE (0000ms, 0934ms total)
T1BA0 001:518 JLINK_IsHalted()  returns FALSE (0001ms, 0935ms total)
T1BA0 001:521 JLINK_IsHalted()  returns FALSE (0001ms, 0935ms total)
T1BA0 001:524 JLINK_IsHalted()  returns FALSE (0001ms, 0935ms total)
T1BA0 001:527 JLINK_IsHalted()  returns FALSE (0001ms, 0935ms total)
T1BA0 001:530 JLINK_IsHalted()  returns FALSE (0001ms, 0935ms total)
T1BA0 001:533 JLINK_IsHalted()  returns FALSE (0001ms, 0935ms total)
T1BA0 001:536 JLINK_IsHalted()  returns FALSE (0001ms, 0935ms total)
T1BA0 001:539 JLINK_IsHalted()  returns FALSE (0000ms, 0934ms total)
T1BA0 001:541 JLINK_IsHalted()  returns FALSE (0000ms, 0934ms total)
T1BA0 001:543 JLINK_IsHalted()  returns FALSE (0001ms, 0935ms total)
T1BA0 001:546 JLINK_IsHalted()  returns FALSE (0001ms, 0935ms total)
T1BA0 001:549 JLINK_IsHalted()  returns FALSE (0001ms, 0935ms total)
T1BA0 001:552 JLINK_IsHalted()  returns FALSE (0001ms, 0935ms total)
T1BA0 001:555 JLINK_IsHalted()  returns FALSE (0001ms, 0935ms total)
T1BA0 001:558 JLINK_IsHalted()  returns FALSE (0001ms, 0935ms total)
T1BA0 001:561 JLINK_IsHalted()  returns TRUE (0003ms, 0937ms total)
T1BA0 001:564 JLINK_ReadReg(R15 (PC))  returns 0x10000000 (0000ms, 0934ms total)
T1BA0 001:564 JLINK_ClrBPEx(BPHandle = 0x00000009)  returns 0x00 (0000ms, 0934ms total)
T1BA0 001:564 JLINK_ReadReg(R0)  returns 0x00000000 (0000ms, 0934ms total)
T1BA0 001:566 JLINK_WriteReg(R0, 0x00001000)  returns 0x00 (0000ms, 0934ms total)
T1BA0 001:566 JLINK_WriteReg(R1, 0x00000400)  returns 0x00 (0000ms, 0934ms total)
T1BA0 001:566 JLINK_WriteReg(R2, 0x000000FF)  returns 0x00 (0000ms, 0934ms total)
T1BA0 001:566 JLINK_WriteReg(R3, 0x00000000)  returns 0x00 (0000ms, 0934ms total)
T1BA0 001:566 JLINK_WriteReg(R4, 0x00000000)  returns 0x00 (0000ms, 0934ms total)
T1BA0 001:566 JLINK_WriteReg(R5, 0x00000000)  returns 0x00 (0000ms, 0934ms total)
T1BA0 001:566 JLINK_WriteReg(R6, 0x00000000)  returns 0x00 (0000ms, 0934ms total)
T1BA0 001:566 JLINK_WriteReg(R7, 0x00000000)  returns 0x00 (0000ms, 0934ms total)
T1BA0 001:566 JLINK_WriteReg(R8, 0x00000000)  returns 0x00 (0000ms, 0934ms total)
T1BA0 001:566 JLINK_WriteReg(R9, 0x10000168)  returns 0x00 (0000ms, 0934ms total)
T1BA0 001:566 JLINK_WriteReg(R10, 0x00000000)  returns 0x00 (0000ms, 0934ms total)
T1BA0 001:566 JLINK_WriteReg(R11, 0x00000000)  returns 0x00 (0000ms, 0934ms total)
T1BA0 001:566 JLINK_WriteReg(R12, 0x00000000)  returns 0x00 (0000ms, 0934ms total)
T1BA0 001:566 JLINK_WriteReg(R13 (SP), 0x10000FE0)  returns 0x00 (0000ms, 0934ms total)
T1BA0 001:566 JLINK_WriteReg(R14, 0x10000001)  returns 0x00 (0000ms, 0934ms total)
T1BA0 001:566 JLINK_WriteReg(R15 (PC), 0x10000020)  returns 0x00 (0000ms, 0934ms total)
T1BA0 001:566 JLINK_WriteReg(XPSR, 0x01000000)  returns 0x00 (0001ms, 0935ms total)
T1BA0 001:567 JLINK_WriteReg(MSP, 0x10000FE0)  returns 0x00 (0000ms, 0935ms total)
T1BA0 001:567 JLINK_WriteReg(PSP, 0x10000FE0)  returns 0x00 (0000ms, 0935ms total)
T1BA0 001:567 JLINK_WriteReg(CFBP, 0x00000000)  returns 0x00 (0000ms, 0935ms total)
T1BA0 001:567 JLINK_SetBPEx(Addr = 0x10000000, Type = 0xFFFFFFF2)  returns 0x0000000A (0000ms, 0935ms total)
T1BA0 001:567 JLINK_Go() -- CPU_WriteMem(4 bytes @ 0xE0002000) -- CPU_ReadMem(4 bytes @ 0xE0001000) -- CPU_WriteMem(4 bytes @ 0xE0001000) (0005ms, 0940ms total)
T1BA0 001:572 JLINK_IsHalted()  returns TRUE (0003ms, 0943ms total)
T1BA0 001:575 JLINK_ReadReg(R15 (PC))  returns 0x10000000 (0000ms, 0940ms total)
T1BA0 001:575 JLINK_ClrBPEx(BPHandle = 0x0000000A)  returns 0x00 (0000ms, 0940ms total)
T1BA0 001:575 JLINK_ReadReg(R0)  returns 0x00000001 (0000ms, 0940ms total)
T1BA0 001:575 JLINK_WriteReg(R0, 0x00001000)  returns 0x00 (0000ms, 0940ms total)
T1BA0 001:575 JLINK_WriteReg(R1, 0x00000400)  returns 0x00 (0000ms, 0940ms total)
T1BA0 001:575 JLINK_WriteReg(R2, 0x000000FF)  returns 0x00 (0000ms, 0940ms total)
T1BA0 001:575 JLINK_WriteReg(R3, 0x00000000)  returns 0x00 (0000ms, 0940ms total)
T1BA0 001:575 JLINK_WriteReg(R4, 0x00000000)  returns 0x00 (0000ms, 0940ms total)
T1BA0 001:575 JLINK_WriteReg(R5, 0x00000000)  returns 0x00 (0000ms, 0940ms total)
T1BA0 001:575 JLINK_WriteReg(R6, 0x00000000)  returns 0x00 (0000ms, 0940ms total)
T1BA0 001:575 JLINK_WriteReg(R7, 0x00000000)  returns 0x00 (0000ms, 0940ms total)
T1BA0 001:575 JLINK_WriteReg(R8, 0x00000000)  returns 0x00 (0000ms, 0940ms total)
T1BA0 001:575 JLINK_WriteReg(R9, 0x10000168)  returns 0x00 (0000ms, 0940ms total)
T1BA0 001:575 JLINK_WriteReg(R10, 0x00000000)  returns 0x00 (0000ms, 0940ms total)
T1BA0 001:575 JLINK_WriteReg(R11, 0x00000000)  returns 0x00 (0000ms, 0940ms total)
T1BA0 001:575 JLINK_WriteReg(R12, 0x00000000)  returns 0x00 (0000ms, 0940ms total)
T1BA0 001:575 JLINK_WriteReg(R13 (SP), 0x10000FE0)  returns 0x00 (0000ms, 0940ms total)
T1BA0 001:575 JLINK_WriteReg(R14, 0x10000001)  returns 0x00 (0000ms, 0940ms total)
T1BA0 001:575 JLINK_WriteReg(R15 (PC), 0x100000A4)  returns 0x00 (0000ms, 0940ms total)
T1BA0 001:575 JLINK_WriteReg(XPSR, 0x01000000)  returns 0x00 (0000ms, 0940ms total)
T1BA0 001:575 JLINK_WriteReg(MSP, 0x10000FE0)  returns 0x00 (0000ms, 0940ms total)
T1BA0 001:575 JLINK_WriteReg(PSP, 0x10000FE0)  returns 0x00 (0000ms, 0940ms total)
T1BA0 001:575 JLINK_WriteReg(CFBP, 0x00000000)  returns 0x00 (0000ms, 0940ms total)
T1BA0 001:575 JLINK_SetBPEx(Addr = 0x10000000, Type = 0xFFFFFFF2)  returns 0x0000000B (0000ms, 0940ms total)
T1BA0 001:575 JLINK_Go() -- CPU_WriteMem(4 bytes @ 0xE0002000) -- CPU_ReadMem(4 bytes @ 0xE0001000) -- CPU_WriteMem(4 bytes @ 0xE0001000) (0007ms, 0947ms total)
T1BA0 001:582 JLINK_IsHalted()  returns FALSE (0001ms, 0948ms total)
T1BA0 001:589 JLINK_IsHalted()  returns FALSE (0001ms, 0948ms total)
T1BA0 001:592 JLINK_IsHalted()  returns FALSE (0001ms, 0948ms total)
T1BA0 001:595 JLINK_IsHalted()  returns FALSE (0001ms, 0948ms total)
T1BA0 001:598 JLINK_IsHalted()  returns FALSE (0001ms, 0948ms total)
T1BA0 001:601 JLINK_IsHalted()  returns FALSE (0001ms, 0948ms total)
T1BA0 001:604 JLINK_IsHalted()  returns FALSE (0001ms, 0948ms total)
T1BA0 001:607 JLINK_IsHalted()  returns FALSE (0001ms, 0948ms total)
T1BA0 001:610 JLINK_IsHalted()  returns FALSE (0001ms, 0948ms total)
T1BA0 001:613 JLINK_IsHalted()  returns FALSE (0001ms, 0948ms total)
T1BA0 001:616 JLINK_IsHalted()  returns FALSE (0001ms, 0948ms total)
T1BA0 001:619 JLINK_IsHalted()  returns FALSE (0001ms, 0948ms total)
T1BA0 001:622 JLINK_IsHalted()  returns FALSE (0000ms, 0947ms total)
T1BA0 001:624 JLINK_IsHalted()  returns FALSE (0001ms, 0948ms total)
T1BA0 001:627 JLINK_IsHalted()  returns FALSE (0001ms, 0948ms total)
T1BA0 001:630 JLINK_IsHalted()  returns FALSE (0001ms, 0948ms total)
T1BA0 001:633 JLINK_IsHalted()  returns FALSE (0001ms, 0948ms total)
T1BA0 001:636 JLINK_IsHalted()  returns FALSE (0001ms, 0948ms total)
T1BA0 001:639 JLINK_IsHalted()  returns FALSE (0001ms, 0948ms total)
T1BA0 001:642 JLINK_IsHalted()  returns FALSE (0001ms, 0948ms total)
T1BA0 001:645 JLINK_IsHalted()  returns FALSE (0000ms, 0947ms total)
T1BA0 001:647 JLINK_IsHalted()  returns FALSE (0001ms, 0948ms total)
T1BA0 001:650 JLINK_IsHalted()  returns FALSE (0001ms, 0948ms total)
T1BA0 001:653 JLINK_IsHalted()  returns FALSE (0001ms, 0948ms total)
T1BA0 001:656 JLINK_IsHalted()  returns FALSE (0001ms, 0948ms total)
T1BA0 001:659 JLINK_IsHalted()  returns FALSE (0001ms, 0948ms total)
T1BA0 001:662 JLINK_IsHalted()  returns FALSE (0001ms, 0948ms total)
T1BA0 001:665 JLINK_IsHalted()  returns FALSE (0001ms, 0948ms total)
T1BA0 001:668 JLINK_IsHalted()  returns FALSE (0001ms, 0948ms total)
T1BA0 001:671 JLINK_IsHalted()  returns FALSE (0001ms, 0948ms total)
T1BA0 001:678 JLINK_IsHalted()  returns FALSE (0001ms, 0948ms total)
T1BA0 001:681 JLINK_IsHalted()  returns FALSE (0001ms, 0948ms total)
T1BA0 001:684 JLINK_IsHalted()  returns TRUE (0004ms, 0951ms total)
T1BA0 001:688 JLINK_ReadReg(R15 (PC))  returns 0x10000000 (0000ms, 0947ms total)
T1BA0 001:688 JLINK_ClrBPEx(BPHandle = 0x0000000B)  returns 0x00 (0000ms, 0947ms total)
T1BA0 001:688 JLINK_ReadReg(R0)  returns 0x00000000 (0000ms, 0947ms total)
T1BA0 001:688 JLINK_WriteReg(R0, 0x00001400)  returns 0x00 (0000ms, 0947ms total)
T1BA0 001:688 JLINK_WriteReg(R1, 0x00000400)  returns 0x00 (0000ms, 0947ms total)
T1BA0 001:688 JLINK_WriteReg(R2, 0x000000FF)  returns 0x00 (0000ms, 0947ms total)
T1BA0 001:689 JLINK_WriteReg(R3, 0x00000000)  returns 0x00 (0000ms, 0947ms total)
T1BA0 001:689 JLINK_WriteReg(R4, 0x00000000)  returns 0x00 (0000ms, 0947ms total)
T1BA0 001:689 JLINK_WriteReg(R5, 0x00000000)  returns 0x00 (0000ms, 0947ms total)
T1BA0 001:689 JLINK_WriteReg(R6, 0x00000000)  returns 0x00 (0000ms, 0947ms total)
T1BA0 001:689 JLINK_WriteReg(R7, 0x00000000)  returns 0x00 (0000ms, 0947ms total)
T1BA0 001:689 JLINK_WriteReg(R8, 0x00000000)  returns 0x00 (0000ms, 0947ms total)
T1BA0 001:689 JLINK_WriteReg(R9, 0x10000168)  returns 0x00 (0000ms, 0947ms total)
T1BA0 001:689 JLINK_WriteReg(R10, 0x00000000)  returns 0x00 (0000ms, 0947ms total)
T1BA0 001:689 JLINK_WriteReg(R11, 0x00000000)  returns 0x00 (0000ms, 0947ms total)
T1BA0 001:689 JLINK_WriteReg(R12, 0x00000000)  returns 0x00 (0000ms, 0947ms total)
T1BA0 001:689 JLINK_WriteReg(R13 (SP), 0x10000FE0)  returns 0x00 (0000ms, 0947ms total)
T1BA0 001:689 JLINK_WriteReg(R14, 0x10000001)  returns 0x00 (0000ms, 0947ms total)
T1BA0 001:689 JLINK_WriteReg(R15 (PC), 0x10000020)  returns 0x00 (0000ms, 0947ms total)
T1BA0 001:689 JLINK_WriteReg(XPSR, 0x01000000)  returns 0x00 (0000ms, 0947ms total)
T1BA0 001:689 JLINK_WriteReg(MSP, 0x10000FE0)  returns 0x00 (0000ms, 0947ms total)
T1BA0 001:689 JLINK_WriteReg(PSP, 0x10000FE0)  returns 0x00 (0000ms, 0947ms total)
T1BA0 001:689 JLINK_WriteReg(CFBP, 0x00000000)  returns 0x00 (0000ms, 0947ms total)
T1BA0 001:689 JLINK_SetBPEx(Addr = 0x10000000, Type = 0xFFFFFFF2)  returns 0x0000000C (0000ms, 0947ms total)
T1BA0 001:689 JLINK_Go() -- CPU_WriteMem(4 bytes @ 0xE0002000) -- CPU_ReadMem(4 bytes @ 0xE0001000) -- CPU_WriteMem(4 bytes @ 0xE0001000) (0006ms, 0953ms total)
T1BA0 001:695 JLINK_IsHalted()  returns TRUE (0004ms, 0957ms total)
T1BA0 001:699 JLINK_ReadReg(R15 (PC))  returns 0x10000000 (0000ms, 0953ms total)
T1BA0 001:699 JLINK_ClrBPEx(BPHandle = 0x0000000C)  returns 0x00 (0000ms, 0953ms total)
T1BA0 001:699 JLINK_ReadReg(R0)  returns 0x00000001 (0000ms, 0953ms total)
T1BA0 001:699 JLINK_WriteReg(R0, 0x00001400)  returns 0x00 (0000ms, 0953ms total)
T1BA0 001:699 JLINK_WriteReg(R1, 0x00000400)  returns 0x00 (0000ms, 0953ms total)
T1BA0 001:699 JLINK_WriteReg(R2, 0x000000FF)  returns 0x00 (0000ms, 0953ms total)
T1BA0 001:699 JLINK_WriteReg(R3, 0x00000000)  returns 0x00 (0000ms, 0953ms total)
T1BA0 001:699 JLINK_WriteReg(R4, 0x00000000)  returns 0x00 (0000ms, 0953ms total)
T1BA0 001:699 JLINK_WriteReg(R5, 0x00000000)  returns 0x00 (0000ms, 0953ms total)
T1BA0 001:699 JLINK_WriteReg(R6, 0x00000000)  returns 0x00 (0000ms, 0953ms total)
T1BA0 001:699 JLINK_WriteReg(R7, 0x00000000)  returns 0x00 (0000ms, 0953ms total)
T1BA0 001:699 JLINK_WriteReg(R8, 0x00000000)  returns 0x00 (0000ms, 0953ms total)
T1BA0 001:699 JLINK_WriteReg(R9, 0x10000168)  returns 0x00 (0000ms, 0953ms total)
T1BA0 001:699 JLINK_WriteReg(R10, 0x00000000)  returns 0x00 (0000ms, 0953ms total)
T1BA0 001:699 JLINK_WriteReg(R11, 0x00000000)  returns 0x00 (0000ms, 0953ms total)
T1BA0 001:699 JLINK_WriteReg(R12, 0x00000000)  returns 0x00 (0000ms, 0953ms total)
T1BA0 001:699 JLINK_WriteReg(R13 (SP), 0x10000FE0)  returns 0x00 (0000ms, 0953ms total)
T1BA0 001:699 JLINK_WriteReg(R14, 0x10000001)  returns 0x00 (0000ms, 0953ms total)
T1BA0 001:699 JLINK_WriteReg(R15 (PC), 0x100000A4)  returns 0x00 (0000ms, 0953ms total)
T1BA0 001:699 JLINK_WriteReg(XPSR, 0x01000000)  returns 0x00 (0000ms, 0953ms total)
T1BA0 001:699 JLINK_WriteReg(MSP, 0x10000FE0)  returns 0x00 (0000ms, 0953ms total)
T1BA0 001:699 JLINK_WriteReg(PSP, 0x10000FE0)  returns 0x00 (0000ms, 0953ms total)
T1BA0 001:699 JLINK_WriteReg(CFBP, 0x00000000)  returns 0x00 (0000ms, 0953ms total)
T1BA0 001:699 JLINK_SetBPEx(Addr = 0x10000000, Type = 0xFFFFFFF2)  returns 0x0000000D (0000ms, 0953ms total)
T1BA0 001:700 JLINK_Go() -- CPU_WriteMem(4 bytes @ 0xE0002000) -- CPU_ReadMem(4 bytes @ 0xE0001000) -- CPU_WriteMem(4 bytes @ 0xE0001000) (0007ms, 0961ms total)
T1BA0 001:707 JLINK_IsHalted()  returns FALSE (0001ms, 0962ms total)
T1BA0 001:710 JLINK_IsHalted()  returns FALSE (0001ms, 0962ms total)
T1BA0 001:713 JLINK_IsHalted()  returns FALSE (0000ms, 0961ms total)
T1BA0 001:716 JLINK_IsHalted()  returns FALSE (0001ms, 0962ms total)
T1BA0 001:719 JLINK_IsHalted()  returns FALSE (0001ms, 0962ms total)
T1BA0 001:722 JLINK_IsHalted()  returns FALSE (0000ms, 0961ms total)
T1BA0 001:724 JLINK_IsHalted()  returns FALSE (0001ms, 0962ms total)
T1BA0 001:727 JLINK_IsHalted()  returns FALSE (0001ms, 0962ms total)
T1BA0 001:730 JLINK_IsHalted()  returns FALSE (0001ms, 0962ms total)
T1BA0 001:733 JLINK_IsHalted()  returns FALSE (0001ms, 0962ms total)
T1BA0 001:736 JLINK_IsHalted()  returns FALSE (0001ms, 0962ms total)
T1BA0 001:739 JLINK_IsHalted()  returns FALSE (0001ms, 0962ms total)
T1BA0 001:742 JLINK_IsHalted()  returns FALSE (0001ms, 0962ms total)
T1BA0 001:745 JLINK_IsHalted()  returns FALSE (0001ms, 0962ms total)
T1BA0 001:748 JLINK_IsHalted()  returns FALSE (0001ms, 0962ms total)
T1BA0 001:751 JLINK_IsHalted()  returns FALSE (0001ms, 0962ms total)
T1BA0 001:754 JLINK_IsHalted()  returns FALSE (0000ms, 0961ms total)
T1BA0 001:756 JLINK_IsHalted()  returns FALSE (0001ms, 0962ms total)
T1BA0 001:759 JLINK_IsHalted()  returns FALSE (0001ms, 0962ms total)
T1BA0 001:762 JLINK_IsHalted()  returns FALSE (0001ms, 0962ms total)
T1BA0 001:765 JLINK_IsHalted()  returns FALSE (0001ms, 0962ms total)
T1BA0 001:768 JLINK_IsHalted()  returns FALSE (0001ms, 0962ms total)
T1BA0 001:771 JLINK_IsHalted()  returns FALSE (0001ms, 0962ms total)
T1BA0 001:774 JLINK_IsHalted()  returns FALSE (0001ms, 0962ms total)
T1BA0 001:777 JLINK_IsHalted()  returns FALSE (0001ms, 0962ms total)
T1BA0 001:780 JLINK_IsHalted()  returns FALSE (0001ms, 0962ms total)
T1BA0 001:783 JLINK_IsHalted()  returns FALSE (0001ms, 0962ms total)
T1BA0 001:786 JLINK_IsHalted()  returns FALSE (0000ms, 0961ms total)
T1BA0 001:792 JLINK_IsHalted()  returns FALSE (0001ms, 0962ms total)
T1BA0 001:795 JLINK_IsHalted()  returns FALSE (0001ms, 0962ms total)
T1BA0 001:798 JLINK_IsHalted()  returns FALSE (0001ms, 0962ms total)
T1BA0 001:801 JLINK_IsHalted()  returns FALSE (0000ms, 0961ms total)
T1BA0 001:803 JLINK_IsHalted()  returns FALSE (0001ms, 0962ms total)
T1BA0 001:806 JLINK_IsHalted()  returns FALSE (0001ms, 0962ms total)
T1BA0 001:809 JLINK_IsHalted()  returns TRUE (0003ms, 0964ms total)
T1BA0 001:812 JLINK_ReadReg(R15 (PC))  returns 0x10000000 (0000ms, 0961ms total)
T1BA0 001:812 JLINK_ClrBPEx(BPHandle = 0x0000000D)  returns 0x00 (0000ms, 0961ms total)
T1BA0 001:812 JLINK_ReadReg(R0)  returns 0x00000000 (0000ms, 0961ms total)
T1BA0 001:813 JLINK_WriteReg(R0, 0x00001800)  returns 0x00 (0000ms, 0961ms total)
T1BA0 001:813 JLINK_WriteReg(R1, 0x00000400)  returns 0x00 (0000ms, 0961ms total)
T1BA0 001:813 JLINK_WriteReg(R2, 0x000000FF)  returns 0x00 (0000ms, 0961ms total)
T1BA0 001:813 JLINK_WriteReg(R3, 0x00000000)  returns 0x00 (0000ms, 0961ms total)
T1BA0 001:813 JLINK_WriteReg(R4, 0x00000000)  returns 0x00 (0000ms, 0961ms total)
T1BA0 001:813 JLINK_WriteReg(R5, 0x00000000)  returns 0x00 (0000ms, 0961ms total)
T1BA0 001:813 JLINK_WriteReg(R6, 0x00000000)  returns 0x00 (0000ms, 0961ms total)
T1BA0 001:813 JLINK_WriteReg(R7, 0x00000000)  returns 0x00 (0000ms, 0961ms total)
T1BA0 001:813 JLINK_WriteReg(R8, 0x00000000)  returns 0x00 (0000ms, 0961ms total)
T1BA0 001:813 JLINK_WriteReg(R9, 0x10000168)  returns 0x00 (0000ms, 0961ms total)
